
T1158 002:670 SEGGER J-Link V4.80g Log File (0000ms, 1087ms total)
T1158 002:670 DLL Compiled: Feb 13 2014 20:50:02 (0000ms, 1087ms total)
T1158 002:670 Logging started @ 2014-11-10 12:23 (0000ms, 1087ms total)
T1158 002:670 JLINK_SetWarnOutHandler(...) (0000ms, 1087ms total)
T1158 002:670 JLINK_OpenEx(...)
Firmware: J-Link OB-SAM3U128 V1 compiled Dec 11 2013 20:20:11
Hardware: V1.00
S/N: 480109711  returns O.K. (0259ms, 1346ms total)
T1158 002:929 JLINK_SetErrorOutHandler(...) (0000ms, 1346ms total)
T1158 002:929 JLINK_ExecCommand("ProjectFile = "C:\Users\trsn\Documents\Project\Trickle\examples\BLE_Gateway\arm\JLinkSettings.ini"", ...)  returns 0x00 (0001ms, 1347ms total)
T1158 002:930 JLINK_ExecCommand("Device = nRF51822_xxAA", ...)Device "NRF51822_XXAA" selected (257 KB flash, 16 KB RAM).  returns 0x00 (0002ms, 1349ms total)
T1158 002:932 JLINK_ExecCommand("DisableConnectionTimeout", ...)  returns 0x01 (0000ms, 1349ms total)
T1158 002:932 JLINK_GetHardwareVersion()  returns 0x2710 (0000ms, 1349ms total)
T1158 002:932 JLINK_GetDLLVersion()  returns 48007 (0000ms, 1349ms total)
T1158 002:932 JLINK_GetFirmwareString(...) (0000ms, 1349ms total)
T1158 002:932 JLINK_GetDLLVersion()  returns 48007 (0000ms, 1349ms total)
T1158 002:932 JLINK_GetCompileDateTime() (0000ms, 1349ms total)
T1158 002:933 JLINK_GetFirmwareString(...) (0000ms, 1349ms total)
T1158 002:934 JLINK_GetHardwareVersion()  returns 0x2710 (0000ms, 1349ms total)
T1158 002:935 JLINK_TIF_Select(JLINKARM_TIF_SWD)  returns 0x00 (0001ms, 1350ms total)
T1158 002:936 JLINK_SetSpeed(2000) (0001ms, 1351ms total)
T1158 002:937 JLINK_GetId() >0x108 TIF>Found SWD-DP with ID 0x0BB11477 >0x35 TIF> >0x0D TIF> >0x28 TIF> >0x0D TIF> >0x28 TIF> >0x35 TIF> >0x0D TIF> >0x28 TIF> >0x35 TIF> >0x35 TIF> >0x35 TIF> >0x0D TIF> >0x28 TIF> >0x0D TIF> >0x28 TIF> >0x0D TIF> >0x28 TIF> >0x35 TIF> >0x35 TIF> >0x35 TIF> >0x0D TIF> >0x28 TIF> >0x0D TIF> >0x28 TIF> >0x35 TIF> >0x0D TIF> >0x28 TIF> >0x0D TIF> >0x28 TIF> >0x0D TIF> >0x28 TIF> >0x35 TIF> >0x35 TIF> >0x0D TIF> >0x28 TIF> >0x35 TIF> >0x35 TIF>
Found Cortex-M0 r0p0, Little endian. -- CPU_WriteMem(4 bytes @ 0xE0002000) -- CPU_ReadMem(4 bytes @ 0xE000EDF0) -- CPU_ReadMem(4 bytes @ 0xE0002000)FPUnit: 4 code (BP) slots and 0 literal slots -- CPU_ReadMem(4 bytes @ 0xE000EDFC) -- CPU_ReadMem(4 bytes @ 0xE0001000) -- CPU_WriteMem(4 bytes @ 0xE0001000) -- CPU_ReadMem(4 bytes @ 0xE00FF018) >0x35 TIF>  returns 0x0BB11477 (0022ms, 1373ms total)
T1158 002:959 JLINK_GetDeviceFamily()  returns 6 (0000ms, 1373ms total)
T1158 002:959 JLINK_ReadMem (0xE00FFFF0, 0x0010 Bytes, ...) -- CPU is running -- CPU_ReadMem(16 bytes @ 0xE00FFFF0) -- Data:  0D 00 00 00 10 00 00 00 05 00 00 00 B1 00 00 00  returns 0x00 (0001ms, 1374ms total)
T1158 002:960 JLINK_ReadMem (0xE00FFFD0, 0x0020 Bytes, ...) -- CPU is running -- CPU_ReadMem(32 bytes @ 0xE00FFFD0) -- Data:  04 00 00 00 00 00 00 00 00 00 00 00 00 00 00 00 ...  returns 0x00 (0001ms, 1375ms total)
T1158 002:961 JLINK_ReadMem (0xE00FF000, 0x0018 Bytes, ...) -- CPU is running -- CPU_ReadMem(24 bytes @ 0xE00FF000) -- Data:  03 F0 F0 FF 03 20 F0 FF 03 30 F0 FF 00 00 00 00 ...  returns 0x00 (0001ms, 1376ms total)
T1158 002:962 JLINK_ReadMemU32(0xE000ED00, 0x0001 Items, ...) -- CPU is running -- CPU_ReadMem(4 bytes @ 0xE000ED00) -- Data:  00 C2 0C 41  returns 0x01 (0001ms, 1377ms total)
T1158 002:963 JLINK_SetResetType(JLINKARM_RESET_TYPE_NORMAL)  returns JLINKARM_RESET_TYPE_NORMAL (0000ms, 1377ms total)
T1158 002:963 JLINK_Reset() -- CPU is running -- CPU_WriteMem(4 bytes @ 0xE000EDF0) -- CPU is running -- CPU_WriteMem(4 bytes @ 0xE000EDFC) >0x35 TIF> -- CPU is running -- CPU_WriteMem(4 bytes @ 0xE000ED0C) -- CPU is running -- CPU_ReadMem(4 bytes @ 0xE000EDF0) -- CPU is running -- CPU_ReadMem(4 bytes @ 0xE000EDF0) -- CPU is running -- CPU_WriteMem(4 bytes @ 0xE000EDF0) -- CPU is running -- CPU_WriteMem(4 bytes @ 0xE000EDFC) -- CPU is running -- CPU_ReadMem(4 bytes @ 0xE000EDF0)
 -- CPU_WriteMem(4 bytes @ 0xE0002000) -- CPU_ReadMem(4 bytes @ 0xE000EDFC) -- CPU_ReadMem(4 bytes @ 0xE0001000) -- CPU_WriteMem(4 bytes @ 0xE0001000) (0018ms, 1395ms total)
T1158 002:981 JLINK_ReadReg(R15 (PC))  returns 0x000006D0 (0000ms, 1395ms total)
T1158 002:981 JLINK_ReadReg(XPSR)  returns 0xC1000000 (0000ms, 1395ms total)
T1158 002:981 JLINK_Halt()  returns 0x00 (0000ms, 1395ms total)
T1158 002:981 JLINK_IsHalted()  returns TRUE (0000ms, 1395ms total)
T1158 002:981 JLINK_ReadMemU32(0xE000EDF0, 0x0001 Items, ...) -- CPU_ReadMem(4 bytes @ 0xE000EDF0) -- Data:  03 00 03 00  returns 0x01 (0000ms, 1395ms total)
T1158 002:981 JLINK_WriteU32(0xE000EDF0, 0xA05F0003) -- CPU_WriteMem(4 bytes @ 0xE000EDF0)  returns 0x00 (0001ms, 1396ms total)
T1158 002:982 JLINK_WriteU32(0xE000EDFC, 0x01000000) -- CPU_WriteMem(4 bytes @ 0xE000EDFC)  returns 0x00 (0001ms, 1397ms total)
T1158 002:983 JLINK_GetHWStatus(...)  returns 0x00 (0000ms, 1397ms total)
T1158 002:984 JLINK_GetNumBPUnits(Type = 0xFFFFFF00)  returns 0x04 (0000ms, 1397ms total)
T1158 002:984 JLINK_GetNumBPUnits(Type = 0xF0)  returns 0x2000 (0000ms, 1397ms total)
T1158 002:984 JLINK_GetNumWPUnits()  returns 0x02 (0000ms, 1397ms total)
T1158 002:984 JLINK_GetSpeed()  returns 0x7D0 (0000ms, 1397ms total)
T1158 002:984 JLINK_ReadMemU32(0xE000E004, 0x0001 Items, ...) -- CPU_ReadMem(4 bytes @ 0xE000E004) -- Data:  00 00 00 00  returns 0x01 (0001ms, 1398ms total)
T1158 002:985 JLINK_ReadReg(R15 (PC))  returns 0x000006D0 (0000ms, 1398ms total)
T1158 002:985 JLINK_ReadReg(XPSR)  returns 0xC1000000 (0000ms, 1398ms total)
T1158 003:003 JLINK_WriteMem(0x00016000, 0x0400 Bytes, ...) -- Data:  F0 34 00 20 D5 86 01 00 EF 86 01 00 C9 62 01 00 ...  returns 0x400 (0000ms, 1398ms total)
T1158 003:003 JLINK_WriteMem(0x00016400, 0x0400 Bytes, ...) -- Data:  02 22 25 21 3F 48 00 F0 AD FC 04 46 00 BF 25 46 ...  returns 0x400 (0000ms, 1398ms total)
T1158 003:003 JLINK_WriteMem(0x00016800, 0x0400 Bytes, ...) -- Data:  04 DC 41 00 89 1D C4 4A 91 60 0C E0 C3 4B 0E CB ...  returns 0x400 (0000ms, 1398ms total)
T1158 003:003 JLINK_WriteMem(0x00016C00, 0x0400 Bytes, ...) -- Data:  08 70 02 20 55 49 48 60 0B E0 4B 49 40 39 A0 68 ...  returns 0x400 (0000ms, 1398ms total)
T1158 003:003 JLINK_WriteMem(0x00017000, 0x0400 Bytes, ...) -- Data:  04 20 FF F7 3A F9 00 BF 00 BF B1 48 00 68 40 19 ...  returns 0x400 (0000ms, 1398ms total)
T1158 003:003 JLINK_WriteMem(0x00017400, 0x0400 Bytes, ...) -- Data:  70 B5 04 46 FF F7 C7 FF 00 28 01 D0 0E 20 70 BD ...  returns 0x400 (0000ms, 1398ms total)
T1158 003:003 JLINK_WriteMem(0x00017800, 0x0400 Bytes, ...) -- Data:  01 21 51 48 FF F7 57 FE 70 BD 70 B5 04 46 0D 46 ...  returns 0x400 (0000ms, 1398ms total)
T1158 003:003 JLINK_WriteMem(0x00017C00, 0x0400 Bytes, ...) -- Data:  5F 6D 65 73 68 5C 73 72 63 5C 74 72 69 63 6B 6C ...  returns 0x400 (0000ms, 1398ms total)
T1158 003:004 JLINK_WriteMem(0x00018000, 0x0400 Bytes, ...) -- Data:  33 46 3A 46 00 21 A5 DF 05 46 00 2D 0C D0 28 46 ...  returns 0x400 (0000ms, 1398ms total)
T1158 003:004 JLINK_WriteMem(0x00018400, 0x0400 Bytes, ...) -- Data:  02 28 01 D1 01 20 00 E0 00 20 00 28 00 D1 1F BD ...  returns 0x400 (0000ms, 1398ms total)
T1158 003:004 JLINK_WriteMem(0x00018800, 0x0400 Bytes, ...) -- Data:  40 18 20 70 00 20 E2 E7 F8 B5 05 46 0F 46 16 46 ...  returns 0x400 (0000ms, 1398ms total)
T1158 003:004 JLINK_WriteMem(0x00018C00, 0x0400 Bytes, ...) -- Data:  20 30 00 96 FF F7 A3 FE 05 46 00 2D 01 D0 28 46 ...  returns 0x400 (0000ms, 1398ms total)
T1158 003:005 JLINK_WriteMem(0x00019000, 0x0400 Bytes, ...) -- Data:  00 F0 E3 F9 FE BD 00 00 00 00 00 00 2D 00 00 00 ...  returns 0x400 (0000ms, 1398ms total)
T1158 003:005 JLINK_WriteMem(0x00019400, 0x0360 Bytes, ...) -- Data:  C0 06 02 D4 20 46 C0 46 C0 46 00 26 08 E0 03 98 ...  returns 0x360 (0000ms, 1398ms total)
T1158 003:056 JLINK_SetResetType(JLINKARM_RESET_TYPE_NORMAL)  returns JLINKARM_RESET_TYPE_NORMAL (0000ms, 1398ms total)
T1158 003:056 JLINK_Reset() -- -------------------------------------- -- Start of determining dirty areas -- End of determining dirty areas -- Start of preparing flash programming -- Calculating RAM usage -- RAM usage = 2716 Bytes -- Preserving registers -- Preparing memory -- Determining CPU clock frequency -- CPU clock frequency: 16064 kHz -- CPU frequency = 16064 kHz -- Preparing target -- Downloading RAMCode -- Using alternate TurboMode RAMCode -- Checking target RAM -- Preparing RAMCode
 -- End of preparing flash programming -- CPU is running at 16064 kHz. -- Start of comparing flash -- CRC check was estimated as fastest method -- Comparing range 0x16000 - 0x197FF (14 Sectors, 14 KB), using multi-block CRC calculation -- All CRCs match -- End of comparing flash -- Start of erasing sectors -- End of erasing sectors -- Start of flash programming -- End of flash programming -- Start of verifying flash -- End of verifying flash -- Start of restoring -- Restore RAMCode
 -- Restore content of target memory -- Restore target -- Restore memory -- Restore content of registers -- End of restoring -- Flash download into internal flash skipped. Flash contents already match -- Flash download into internal flash skipped. Flash contents already match -- CPU_ReadMem(4 bytes @ 0x200005BC) -- CPU_WriteMem(4 bytes @ 0x200005BC) -- CPU_WriteMem(4 bytes @ 0xE000EDF0) -- CPU_WriteMem(4 bytes @ 0xE000EDFC) >0x35 TIF> -- CPU_WriteMem(4 bytes @ 0xE000ED0C)
 -- CPU_ReadMem(4 bytes @ 0xE000EDF0) -- CPU_ReadMem(4 bytes @ 0xE000EDF0) -- CPU_WriteMem(4 bytes @ 0xE000EDF0) -- CPU_WriteMem(4 bytes @ 0xE000EDFC) -- CPU is running -- CPU_ReadMem(4 bytes @ 0xE000EDF0) -- CPU_WriteMem(4 bytes @ 0xE0002000) -- CPU_ReadMem(4 bytes @ 0xE000EDFC) -- CPU_ReadMem(4 bytes @ 0xE0001000) -- CPU_WriteMem(4 bytes @ 0xE0001000) (0103ms, 1501ms total)
T1158 003:159 JLINK_ReadReg(R15 (PC))  returns 0x000006D0 (0000ms, 1501ms total)
T1158 003:159 JLINK_ReadReg(XPSR)  returns 0xC1000000 (0000ms, 1501ms total)
T1158 003:159 JLINK_ReadMem (0x000006D0, 0x003C Bytes, ...) -- CPU_ReadMem(128 bytes @ 0x000006C0) -- Updating C cache (128 bytes @ 0x000006C0) -- Read from C cache (60 bytes @ 0x000006D0) -- Data:  16 49 17 4C 24 68 8C 42 0B D1 16 4B 1B 68 99 42 ...  returns 0x00 (0001ms, 1502ms total)
T1158 003:188 JLINK_ReadMem (0x50000504, 0x0018 Bytes, ...) -- CPU_ReadMem(24 bytes @ 0x50000504) -- Data:  00 00 00 00 00 00 00 00 00 00 00 00 00 00 00 00 ...  returns 0x00 (0001ms, 1503ms total)
T1158 003:189 JLINK_ReadMem (0x5000051C, 0x0004 Bytes, ...) -- CPU_ReadMem(4 bytes @ 0x5000051C) -- Data:  00 00 00 00  returns 0x00 (0001ms, 1504ms total)
T1158 003:190 JLINK_ReadMem (0x50000700, 0x007C Bytes, ...) -- CPU_ReadMem(124 bytes @ 0x50000700) -- Data:  02 00 00 00 02 00 00 00 02 00 00 00 02 00 00 00 ...  returns 0x00 (0001ms, 1505ms total)
T1158 003:191 JLINK_ReadMem (0x5000077C, 0x0004 Bytes, ...) -- CPU_ReadMem(4 bytes @ 0x5000077C) -- Data:  02 00 00 00  returns 0x00 (0001ms, 1506ms total)
T1158 003:192 JLINK_ReadMem (0x50000700, 0x0004 Bytes, ...) -- CPU_ReadMem(4 bytes @ 0x50000700) -- Data:  02 00 00 00  returns 0x00 (0001ms, 1507ms total)
T1158 003:193 JLINK_ReadMem (0x50000700, 0x0004 Bytes, ...) -- CPU_ReadMem(4 bytes @ 0x50000700) -- Data:  02 00 00 00  returns 0x00 (0000ms, 1507ms total)
T1158 003:194 JLINK_ReadMem (0x50000700, 0x0004 Bytes, ...) -- CPU_ReadMem(4 bytes @ 0x50000700) -- Data:  02 00 00 00  returns 0x00 (0000ms, 1507ms total)
T1158 003:194 JLINK_ReadMem (0x50000700, 0x0004 Bytes, ...) -- CPU_ReadMem(4 bytes @ 0x50000700) -- Data:  02 00 00 00  returns 0x00 (0001ms, 1508ms total)
T1158 003:195 JLINK_ReadMem (0x50000700, 0x0004 Bytes, ...) -- CPU_ReadMem(4 bytes @ 0x50000700) -- Data:  02 00 00 00  returns 0x00 (0000ms, 1508ms total)
T1158 003:195 JLINK_ReadMem (0x50000700, 0x0004 Bytes, ...) -- CPU_ReadMem(4 bytes @ 0x50000700) -- Data:  02 00 00 00  returns 0x00 (0001ms, 1509ms total)
T1158 003:196 JLINK_ReadMem (0x50000704, 0x0004 Bytes, ...) -- CPU_ReadMem(4 bytes @ 0x50000704) -- Data:  02 00 00 00  returns 0x00 (0001ms, 1510ms total)
T1158 003:197 JLINK_ReadMem (0x50000704, 0x0004 Bytes, ...) -- CPU_ReadMem(4 bytes @ 0x50000704) -- Data:  02 00 00 00  returns 0x00 (0000ms, 1510ms total)
T1158 003:197 JLINK_ReadMem (0x50000704, 0x0004 Bytes, ...) -- CPU_ReadMem(4 bytes @ 0x50000704) -- Data:  02 00 00 00  returns 0x00 (0001ms, 1511ms total)
T1158 003:198 JLINK_ReadMem (0x50000704, 0x0004 Bytes, ...) -- CPU_ReadMem(4 bytes @ 0x50000704) -- Data:  02 00 00 00  returns 0x00 (0001ms, 1512ms total)
T1158 003:199 JLINK_ReadMem (0x50000704, 0x0004 Bytes, ...) -- CPU_ReadMem(4 bytes @ 0x50000704) -- Data:  02 00 00 00  returns 0x00 (0000ms, 1512ms total)
T1158 003:199 JLINK_ReadMem (0x50000704, 0x0004 Bytes, ...) -- CPU_ReadMem(4 bytes @ 0x50000704) -- Data:  02 00 00 00  returns 0x00 (0001ms, 1513ms total)
T1158 003:200 JLINK_ReadMem (0x50000708, 0x0004 Bytes, ...) -- CPU_ReadMem(4 bytes @ 0x50000708) -- Data:  02 00 00 00  returns 0x00 (0000ms, 1513ms total)
T1158 003:200 JLINK_ReadMem (0x50000708, 0x0004 Bytes, ...) -- CPU_ReadMem(4 bytes @ 0x50000708) -- Data:  02 00 00 00  returns 0x00 (0001ms, 1514ms total)
T1158 003:201 JLINK_ReadMem (0x50000708, 0x0004 Bytes, ...) -- CPU_ReadMem(4 bytes @ 0x50000708) -- Data:  02 00 00 00  returns 0x00 (0001ms, 1515ms total)
T1158 003:202 JLINK_ReadMem (0x50000708, 0x0004 Bytes, ...) -- CPU_ReadMem(4 bytes @ 0x50000708) -- Data:  02 00 00 00  returns 0x00 (0000ms, 1515ms total)
T1158 003:202 JLINK_ReadMem (0x50000708, 0x0004 Bytes, ...) -- CPU_ReadMem(4 bytes @ 0x50000708) -- Data:  02 00 00 00  returns 0x00 (0001ms, 1516ms total)
T1158 003:203 JLINK_ReadMem (0x50000708, 0x0004 Bytes, ...) -- CPU_ReadMem(4 bytes @ 0x50000708) -- Data:  02 00 00 00  returns 0x00 (0001ms, 1517ms total)
T1158 003:204 JLINK_ReadMem (0x5000070C, 0x0004 Bytes, ...) -- CPU_ReadMem(4 bytes @ 0x5000070C) -- Data:  02 00 00 00  returns 0x00 (0000ms, 1517ms total)
T1158 003:204 JLINK_ReadMem (0x5000070C, 0x0004 Bytes, ...) -- CPU_ReadMem(4 bytes @ 0x5000070C) -- Data:  02 00 00 00  returns 0x00 (0001ms, 1518ms total)
T1158 003:205 JLINK_ReadMem (0x5000070C, 0x0004 Bytes, ...) -- CPU_ReadMem(4 bytes @ 0x5000070C) -- Data:  02 00 00 00  returns 0x00 (0000ms, 1518ms total)
T1158 003:206 JLINK_ReadMem (0x5000070C, 0x0004 Bytes, ...) -- CPU_ReadMem(4 bytes @ 0x5000070C) -- Data:  02 00 00 00  returns 0x00 (0000ms, 1518ms total)
T1158 003:206 JLINK_ReadMem (0x5000070C, 0x0004 Bytes, ...) -- CPU_ReadMem(4 bytes @ 0x5000070C) -- Data:  02 00 00 00  returns 0x00 (0001ms, 1519ms total)
T1158 003:207 JLINK_ReadMem (0x5000070C, 0x0004 Bytes, ...) -- CPU_ReadMem(4 bytes @ 0x5000070C) -- Data:  02 00 00 00  returns 0x00 (0000ms, 1519ms total)
T1158 003:207 JLINK_ReadMem (0x50000710, 0x0004 Bytes, ...) -- CPU_ReadMem(4 bytes @ 0x50000710) -- Data:  02 00 00 00  returns 0x00 (0001ms, 1520ms total)
T1158 003:208 JLINK_ReadMem (0x50000710, 0x0004 Bytes, ...) -- CPU_ReadMem(4 bytes @ 0x50000710) -- Data:  02 00 00 00  returns 0x00 (0001ms, 1521ms total)
T1158 003:209 JLINK_ReadMem (0x50000710, 0x0004 Bytes, ...) -- CPU_ReadMem(4 bytes @ 0x50000710) -- Data:  02 00 00 00  returns 0x00 (0000ms, 1521ms total)
T1158 003:209 JLINK_ReadMem (0x50000710, 0x0004 Bytes, ...) -- CPU_ReadMem(4 bytes @ 0x50000710) -- Data:  02 00 00 00  returns 0x00 (0001ms, 1522ms total)
T1158 003:210 JLINK_ReadMem (0x50000710, 0x0004 Bytes, ...) -- CPU_ReadMem(4 bytes @ 0x50000710) -- Data:  02 00 00 00  returns 0x00 (0000ms, 1522ms total)
T1158 003:210 JLINK_ReadMem (0x50000710, 0x0004 Bytes, ...) -- CPU_ReadMem(4 bytes @ 0x50000710) -- Data:  02 00 00 00  returns 0x00 (0001ms, 1523ms total)
T1158 003:211 JLINK_ReadMem (0x50000714, 0x0004 Bytes, ...) -- CPU_ReadMem(4 bytes @ 0x50000714) -- Data:  02 00 00 00  returns 0x00 (0000ms, 1523ms total)
T1158 003:211 JLINK_ReadMem (0x50000714, 0x0004 Bytes, ...) -- CPU_ReadMem(4 bytes @ 0x50000714) -- Data:  02 00 00 00  returns 0x00 (0001ms, 1524ms total)
T1158 003:212 JLINK_ReadMem (0x50000714, 0x0004 Bytes, ...) -- CPU_ReadMem(4 bytes @ 0x50000714) -- Data:  02 00 00 00  returns 0x00 (0001ms, 1525ms total)
T1158 003:213 JLINK_ReadMem (0x50000714, 0x0004 Bytes, ...) -- CPU_ReadMem(4 bytes @ 0x50000714) -- Data:  02 00 00 00  returns 0x00 (0000ms, 1525ms total)
T1158 003:213 JLINK_ReadMem (0x50000714, 0x0004 Bytes, ...) -- CPU_ReadMem(4 bytes @ 0x50000714) -- Data:  02 00 00 00  returns 0x00 (0001ms, 1526ms total)
T1158 003:214 JLINK_ReadMem (0x50000714, 0x0004 Bytes, ...) -- CPU_ReadMem(4 bytes @ 0x50000714) -- Data:  02 00 00 00  returns 0x00 (0001ms, 1527ms total)
T1158 003:215 JLINK_ReadMem (0x50000718, 0x0004 Bytes, ...) -- CPU_ReadMem(4 bytes @ 0x50000718) -- Data:  02 00 00 00  returns 0x00 (0000ms, 1527ms total)
T1158 003:215 JLINK_ReadMem (0x50000718, 0x0004 Bytes, ...) -- CPU_ReadMem(4 bytes @ 0x50000718) -- Data:  02 00 00 00  returns 0x00 (0001ms, 1528ms total)
T1158 003:216 JLINK_ReadMem (0x50000718, 0x0004 Bytes, ...) -- CPU_ReadMem(4 bytes @ 0x50000718) -- Data:  02 00 00 00  returns 0x00 (0000ms, 1528ms total)
T1158 003:216 JLINK_ReadMem (0x50000718, 0x0004 Bytes, ...) -- CPU_ReadMem(4 bytes @ 0x50000718) -- Data:  02 00 00 00  returns 0x00 (0001ms, 1529ms total)
T1158 003:217 JLINK_ReadMem (0x50000718, 0x0004 Bytes, ...) -- CPU_ReadMem(4 bytes @ 0x50000718) -- Data:  02 00 00 00  returns 0x00 (0001ms, 1530ms total)
T1158 003:218 JLINK_ReadMem (0x50000718, 0x0004 Bytes, ...) -- CPU_ReadMem(4 bytes @ 0x50000718) -- Data:  02 00 00 00  returns 0x00 (0000ms, 1530ms total)
T1158 003:218 JLINK_ReadMem (0x5000071C, 0x0004 Bytes, ...) -- CPU_ReadMem(4 bytes @ 0x5000071C) -- Data:  02 00 00 00  returns 0x00 (0001ms, 1531ms total)
T1158 003:219 JLINK_ReadMem (0x5000071C, 0x0004 Bytes, ...) -- CPU_ReadMem(4 bytes @ 0x5000071C) -- Data:  02 00 00 00  returns 0x00 (0001ms, 1532ms total)
T1158 003:220 JLINK_ReadMem (0x5000071C, 0x0004 Bytes, ...) -- CPU_ReadMem(4 bytes @ 0x5000071C) -- Data:  02 00 00 00  returns 0x00 (0000ms, 1532ms total)
T1158 003:220 JLINK_ReadMem (0x5000071C, 0x0004 Bytes, ...) -- CPU_ReadMem(4 bytes @ 0x5000071C) -- Data:  02 00 00 00  returns 0x00 (0001ms, 1533ms total)
T1158 003:221 JLINK_ReadMem (0x5000071C, 0x0004 Bytes, ...) -- CPU_ReadMem(4 bytes @ 0x5000071C) -- Data:  02 00 00 00  returns 0x00 (0000ms, 1533ms total)
T1158 003:221 JLINK_ReadMem (0x5000071C, 0x0004 Bytes, ...) -- CPU_ReadMem(4 bytes @ 0x5000071C) -- Data:  02 00 00 00  returns 0x00 (0001ms, 1534ms total)
T1158 003:222 JLINK_ReadMem (0x50000720, 0x0004 Bytes, ...) -- CPU_ReadMem(4 bytes @ 0x50000720) -- Data:  02 00 00 00  returns 0x00 (0001ms, 1535ms total)
T1158 003:223 JLINK_ReadMem (0x50000720, 0x0004 Bytes, ...) -- CPU_ReadMem(4 bytes @ 0x50000720) -- Data:  02 00 00 00  returns 0x00 (0000ms, 1535ms total)
T1158 003:223 JLINK_ReadMem (0x50000720, 0x0004 Bytes, ...) -- CPU_ReadMem(4 bytes @ 0x50000720) -- Data:  02 00 00 00  returns 0x00 (0001ms, 1536ms total)
T1158 003:224 JLINK_ReadMem (0x50000720, 0x0004 Bytes, ...) -- CPU_ReadMem(4 bytes @ 0x50000720) -- Data:  02 00 00 00  returns 0x00 (0001ms, 1537ms total)
T1158 003:225 JLINK_ReadMem (0x50000720, 0x0004 Bytes, ...) -- CPU_ReadMem(4 bytes @ 0x50000720) -- Data:  02 00 00 00  returns 0x00 (0000ms, 1537ms total)
T1158 003:225 JLINK_ReadMem (0x50000720, 0x0004 Bytes, ...) -- CPU_ReadMem(4 bytes @ 0x50000720) -- Data:  02 00 00 00  returns 0x00 (0001ms, 1538ms total)
T1158 003:226 JLINK_ReadMem (0x50000724, 0x0004 Bytes, ...) -- CPU_ReadMem(4 bytes @ 0x50000724) -- Data:  02 00 00 00  returns 0x00 (0000ms, 1538ms total)
T1158 003:226 JLINK_ReadMem (0x50000724, 0x0004 Bytes, ...) -- CPU_ReadMem(4 bytes @ 0x50000724) -- Data:  02 00 00 00  returns 0x00 (0001ms, 1539ms total)
T1158 003:227 JLINK_ReadMem (0x50000724, 0x0004 Bytes, ...) -- CPU_ReadMem(4 bytes @ 0x50000724) -- Data:  02 00 00 00  returns 0x00 (0001ms, 1540ms total)
T1158 003:228 JLINK_ReadMem (0x50000724, 0x0004 Bytes, ...) -- CPU_ReadMem(4 bytes @ 0x50000724) -- Data:  02 00 00 00  returns 0x00 (0000ms, 1540ms total)
T1158 003:228 JLINK_ReadMem (0x50000724, 0x0004 Bytes, ...) -- CPU_ReadMem(4 bytes @ 0x50000724) -- Data:  02 00 00 00  returns 0x00 (0001ms, 1541ms total)
T1158 003:229 JLINK_ReadMem (0x50000724, 0x0004 Bytes, ...) -- CPU_ReadMem(4 bytes @ 0x50000724) -- Data:  02 00 00 00  returns 0x00 (0000ms, 1541ms total)
T1158 003:229 JLINK_ReadMem (0x50000728, 0x0004 Bytes, ...) -- CPU_ReadMem(4 bytes @ 0x50000728) -- Data:  02 00 00 00  returns 0x00 (0001ms, 1542ms total)
T1158 003:230 JLINK_ReadMem (0x50000728, 0x0004 Bytes, ...) -- CPU_ReadMem(4 bytes @ 0x50000728) -- Data:  02 00 00 00  returns 0x00 (0000ms, 1542ms total)
T1158 003:230 JLINK_ReadMem (0x50000728, 0x0004 Bytes, ...) -- CPU_ReadMem(4 bytes @ 0x50000728) -- Data:  02 00 00 00  returns 0x00 (0001ms, 1543ms total)
T1158 003:231 JLINK_ReadMem (0x50000728, 0x0004 Bytes, ...) -- CPU_ReadMem(4 bytes @ 0x50000728) -- Data:  02 00 00 00  returns 0x00 (0000ms, 1543ms total)
T1158 003:232 JLINK_ReadMem (0x50000728, 0x0004 Bytes, ...) -- CPU_ReadMem(4 bytes @ 0x50000728) -- Data:  02 00 00 00  returns 0x00 (0000ms, 1543ms total)
T1158 003:232 JLINK_ReadMem (0x50000728, 0x0004 Bytes, ...) -- CPU_ReadMem(4 bytes @ 0x50000728) -- Data:  02 00 00 00  returns 0x00 (0001ms, 1544ms total)
T1158 003:233 JLINK_ReadMem (0x5000072C, 0x0004 Bytes, ...) -- CPU_ReadMem(4 bytes @ 0x5000072C) -- Data:  02 00 00 00  returns 0x00 (0000ms, 1544ms total)
T1158 003:233 JLINK_ReadMem (0x5000072C, 0x0004 Bytes, ...) -- CPU_ReadMem(4 bytes @ 0x5000072C) -- Data:  02 00 00 00  returns 0x00 (0001ms, 1545ms total)
T1158 003:234 JLINK_ReadMem (0x5000072C, 0x0004 Bytes, ...) -- CPU_ReadMem(4 bytes @ 0x5000072C) -- Data:  02 00 00 00  returns 0x00 (0000ms, 1545ms total)
T1158 003:234 JLINK_ReadMem (0x5000072C, 0x0004 Bytes, ...) -- CPU_ReadMem(4 bytes @ 0x5000072C) -- Data:  02 00 00 00  returns 0x00 (0001ms, 1546ms total)
T1158 003:235 JLINK_ReadMem (0x5000072C, 0x0004 Bytes, ...) -- CPU_ReadMem(4 bytes @ 0x5000072C) -- Data:  02 00 00 00  returns 0x00 (0000ms, 1546ms total)
T1158 003:235 JLINK_ReadMem (0x5000072C, 0x0004 Bytes, ...) -- CPU_ReadMem(4 bytes @ 0x5000072C) -- Data:  02 00 00 00  returns 0x00 (0001ms, 1547ms total)
T1158 003:236 JLINK_ReadMem (0x50000730, 0x0004 Bytes, ...) -- CPU_ReadMem(4 bytes @ 0x50000730) -- Data:  02 00 00 00  returns 0x00 (0000ms, 1547ms total)
T1158 003:236 JLINK_ReadMem (0x50000730, 0x0004 Bytes, ...) -- CPU_ReadMem(4 bytes @ 0x50000730) -- Data:  02 00 00 00  returns 0x00 (0001ms, 1548ms total)
T1158 003:237 JLINK_ReadMem (0x50000730, 0x0004 Bytes, ...) -- CPU_ReadMem(4 bytes @ 0x50000730) -- Data:  02 00 00 00  returns 0x00 (0001ms, 1549ms total)
T1158 003:238 JLINK_ReadMem (0x50000730, 0x0004 Bytes, ...) -- CPU_ReadMem(4 bytes @ 0x50000730) -- Data:  02 00 00 00  returns 0x00 (0000ms, 1549ms total)
T1158 003:238 JLINK_ReadMem (0x50000730, 0x0004 Bytes, ...) -- CPU_ReadMem(4 bytes @ 0x50000730) -- Data:  02 00 00 00  returns 0x00 (0001ms, 1550ms total)
T1158 003:239 JLINK_ReadMem (0x50000730, 0x0004 Bytes, ...) -- CPU_ReadMem(4 bytes @ 0x50000730) -- Data:  02 00 00 00  returns 0x00 (0001ms, 1551ms total)
T1158 003:240 JLINK_ReadMem (0x50000734, 0x0004 Bytes, ...) -- CPU_ReadMem(4 bytes @ 0x50000734) -- Data:  02 00 00 00  returns 0x00 (0000ms, 1551ms total)
T1158 003:240 JLINK_ReadMem (0x50000734, 0x0004 Bytes, ...) -- CPU_ReadMem(4 bytes @ 0x50000734) -- Data:  02 00 00 00  returns 0x00 (0001ms, 1552ms total)
T1158 003:241 JLINK_ReadMem (0x50000734, 0x0004 Bytes, ...) -- CPU_ReadMem(4 bytes @ 0x50000734) -- Data:  02 00 00 00  returns 0x00 (0000ms, 1552ms total)
T1158 003:241 JLINK_ReadMem (0x50000734, 0x0004 Bytes, ...) -- CPU_ReadMem(4 bytes @ 0x50000734) -- Data:  02 00 00 00  returns 0x00 (0001ms, 1553ms total)
T1158 003:242 JLINK_ReadMem (0x50000734, 0x0004 Bytes, ...) -- CPU_ReadMem(4 bytes @ 0x50000734) -- Data:  02 00 00 00  returns 0x00 (0000ms, 1553ms total)
T1158 003:242 JLINK_ReadMem (0x50000734, 0x0004 Bytes, ...) -- CPU_ReadMem(4 bytes @ 0x50000734) -- Data:  02 00 00 00  returns 0x00 (0001ms, 1554ms total)
T1158 003:243 JLINK_ReadMem (0x50000738, 0x0004 Bytes, ...) -- CPU_ReadMem(4 bytes @ 0x50000738) -- Data:  02 00 00 00  returns 0x00 (0000ms, 1554ms total)
T1158 003:243 JLINK_ReadMem (0x50000738, 0x0004 Bytes, ...) -- CPU_ReadMem(4 bytes @ 0x50000738) -- Data:  02 00 00 00  returns 0x00 (0001ms, 1555ms total)
T1158 003:244 JLINK_ReadMem (0x50000738, 0x0004 Bytes, ...) -- CPU_ReadMem(4 bytes @ 0x50000738) -- Data:  02 00 00 00  returns 0x00 (0001ms, 1556ms total)
T1158 003:245 JLINK_ReadMem (0x50000738, 0x0004 Bytes, ...) -- CPU_ReadMem(4 bytes @ 0x50000738) -- Data:  02 00 00 00  returns 0x00 (0000ms, 1556ms total)
T1158 003:245 JLINK_ReadMem (0x50000738, 0x0004 Bytes, ...) -- CPU_ReadMem(4 bytes @ 0x50000738) -- Data:  02 00 00 00  returns 0x00 (0001ms, 1557ms total)
T1158 003:246 JLINK_ReadMem (0x50000738, 0x0004 Bytes, ...) -- CPU_ReadMem(4 bytes @ 0x50000738) -- Data:  02 00 00 00  returns 0x00 (0001ms, 1558ms total)
T1158 003:247 JLINK_ReadMem (0x5000073C, 0x0004 Bytes, ...) -- CPU_ReadMem(4 bytes @ 0x5000073C) -- Data:  02 00 00 00  returns 0x00 (0000ms, 1558ms total)
T1158 003:247 JLINK_ReadMem (0x5000073C, 0x0004 Bytes, ...) -- CPU_ReadMem(4 bytes @ 0x5000073C) -- Data:  02 00 00 00  returns 0x00 (0001ms, 1559ms total)
T1158 003:248 JLINK_ReadMem (0x5000073C, 0x0004 Bytes, ...) -- CPU_ReadMem(4 bytes @ 0x5000073C) -- Data:  02 00 00 00  returns 0x00 (0000ms, 1559ms total)
T1158 003:248 JLINK_ReadMem (0x5000073C, 0x0004 Bytes, ...) -- CPU_ReadMem(4 bytes @ 0x5000073C) -- Data:  02 00 00 00  returns 0x00 (0001ms, 1560ms total)
T1158 003:249 JLINK_ReadMem (0x5000073C, 0x0004 Bytes, ...) -- CPU_ReadMem(4 bytes @ 0x5000073C) -- Data:  02 00 00 00  returns 0x00 (0000ms, 1560ms total)
T1158 003:249 JLINK_ReadMem (0x5000073C, 0x0004 Bytes, ...) -- CPU_ReadMem(4 bytes @ 0x5000073C) -- Data:  02 00 00 00  returns 0x00 (0001ms, 1561ms total)
T1158 003:250 JLINK_ReadMem (0x50000740, 0x0004 Bytes, ...) -- CPU_ReadMem(4 bytes @ 0x50000740) -- Data:  02 00 00 00  returns 0x00 (0000ms, 1561ms total)
T1158 003:250 JLINK_ReadMem (0x50000740, 0x0004 Bytes, ...) -- CPU_ReadMem(4 bytes @ 0x50000740) -- Data:  02 00 00 00  returns 0x00 (0001ms, 1562ms total)
T1158 003:251 JLINK_ReadMem (0x50000740, 0x0004 Bytes, ...) -- CPU_ReadMem(4 bytes @ 0x50000740) -- Data:  02 00 00 00  returns 0x00 (0000ms, 1562ms total)
T1158 003:251 JLINK_ReadMem (0x50000740, 0x0004 Bytes, ...) -- CPU_ReadMem(4 bytes @ 0x50000740) -- Data:  02 00 00 00  returns 0x00 (0001ms, 1563ms total)
T1158 003:252 JLINK_ReadMem (0x50000740, 0x0004 Bytes, ...) -- CPU_ReadMem(4 bytes @ 0x50000740) -- Data:  02 00 00 00  returns 0x00 (0000ms, 1563ms total)
T1158 003:252 JLINK_ReadMem (0x50000740, 0x0004 Bytes, ...) -- CPU_ReadMem(4 bytes @ 0x50000740) -- Data:  02 00 00 00  returns 0x00 (0001ms, 1564ms total)
T1158 003:253 JLINK_ReadMem (0x50000744, 0x0004 Bytes, ...) -- CPU_ReadMem(4 bytes @ 0x50000744) -- Data:  02 00 00 00  returns 0x00 (0000ms, 1564ms total)
T1158 003:253 JLINK_ReadMem (0x50000744, 0x0004 Bytes, ...) -- CPU_ReadMem(4 bytes @ 0x50000744) -- Data:  02 00 00 00  returns 0x00 (0001ms, 1565ms total)
T1158 003:254 JLINK_ReadMem (0x50000744, 0x0004 Bytes, ...) -- CPU_ReadMem(4 bytes @ 0x50000744) -- Data:  02 00 00 00  returns 0x00 (0000ms, 1565ms total)
T1158 003:254 JLINK_ReadMem (0x50000744, 0x0004 Bytes, ...) -- CPU_ReadMem(4 bytes @ 0x50000744) -- Data:  02 00 00 00  returns 0x00 (0001ms, 1566ms total)
T1158 003:255 JLINK_ReadMem (0x50000744, 0x0004 Bytes, ...) -- CPU_ReadMem(4 bytes @ 0x50000744) -- Data:  02 00 00 00  returns 0x00 (0001ms, 1567ms total)
T1158 003:256 JLINK_ReadMem (0x50000744, 0x0004 Bytes, ...) -- CPU_ReadMem(4 bytes @ 0x50000744) -- Data:  02 00 00 00  returns 0x00 (0000ms, 1567ms total)
T1158 003:256 JLINK_ReadMem (0x50000748, 0x0004 Bytes, ...) -- CPU_ReadMem(4 bytes @ 0x50000748) -- Data:  02 00 00 00  returns 0x00 (0001ms, 1568ms total)
T1158 003:257 JLINK_ReadMem (0x50000748, 0x0004 Bytes, ...) -- CPU_ReadMem(4 bytes @ 0x50000748) -- Data:  02 00 00 00  returns 0x00 (0000ms, 1568ms total)
T1158 003:257 JLINK_ReadMem (0x50000748, 0x0004 Bytes, ...) -- CPU_ReadMem(4 bytes @ 0x50000748) -- Data:  02 00 00 00  returns 0x00 (0001ms, 1569ms total)
T1158 003:258 JLINK_ReadMem (0x50000748, 0x0004 Bytes, ...) -- CPU_ReadMem(4 bytes @ 0x50000748) -- Data:  02 00 00 00  returns 0x00 (0000ms, 1569ms total)
T1158 003:258 JLINK_ReadMem (0x50000748, 0x0004 Bytes, ...) -- CPU_ReadMem(4 bytes @ 0x50000748) -- Data:  02 00 00 00  returns 0x00 (0001ms, 1570ms total)
T1158 003:259 JLINK_ReadMem (0x50000748, 0x0004 Bytes, ...) -- CPU_ReadMem(4 bytes @ 0x50000748) -- Data:  02 00 00 00  returns 0x00 (0000ms, 1570ms total)
T1158 003:259 JLINK_ReadMem (0x5000074C, 0x0004 Bytes, ...) -- CPU_ReadMem(4 bytes @ 0x5000074C) -- Data:  02 00 00 00  returns 0x00 (0001ms, 1571ms total)
T1158 003:260 JLINK_ReadMem (0x5000074C, 0x0004 Bytes, ...) -- CPU_ReadMem(4 bytes @ 0x5000074C) -- Data:  02 00 00 00  returns 0x00 (0000ms, 1571ms total)
T1158 003:260 JLINK_ReadMem (0x5000074C, 0x0004 Bytes, ...) -- CPU_ReadMem(4 bytes @ 0x5000074C) -- Data:  02 00 00 00  returns 0x00 (0001ms, 1572ms total)
T1158 003:261 JLINK_ReadMem (0x5000074C, 0x0004 Bytes, ...) -- CPU_ReadMem(4 bytes @ 0x5000074C) -- Data:  02 00 00 00  returns 0x00 (0000ms, 1572ms total)
T1158 003:261 JLINK_ReadMem (0x5000074C, 0x0004 Bytes, ...) -- CPU_ReadMem(4 bytes @ 0x5000074C) -- Data:  02 00 00 00  returns 0x00 (0001ms, 1573ms total)
T1158 003:262 JLINK_ReadMem (0x5000074C, 0x0004 Bytes, ...) -- CPU_ReadMem(4 bytes @ 0x5000074C) -- Data:  02 00 00 00  returns 0x00 (0000ms, 1573ms total)
T1158 003:263 JLINK_ReadMem (0x50000750, 0x0004 Bytes, ...) -- CPU_ReadMem(4 bytes @ 0x50000750) -- Data:  02 00 00 00  returns 0x00 (0000ms, 1573ms total)
T1158 003:263 JLINK_ReadMem (0x50000750, 0x0004 Bytes, ...) -- CPU_ReadMem(4 bytes @ 0x50000750) -- Data:  02 00 00 00  returns 0x00 (0001ms, 1574ms total)
T1158 003:264 JLINK_ReadMem (0x50000750, 0x0004 Bytes, ...) -- CPU_ReadMem(4 bytes @ 0x50000750) -- Data:  02 00 00 00  returns 0x00 (0000ms, 1574ms total)
T1158 003:264 JLINK_ReadMem (0x50000750, 0x0004 Bytes, ...) -- CPU_ReadMem(4 bytes @ 0x50000750) -- Data:  02 00 00 00  returns 0x00 (0001ms, 1575ms total)
T1158 003:265 JLINK_ReadMem (0x50000750, 0x0004 Bytes, ...) -- CPU_ReadMem(4 bytes @ 0x50000750) -- Data:  02 00 00 00  returns 0x00 (0001ms, 1576ms total)
T1158 003:266 JLINK_ReadMem (0x50000750, 0x0004 Bytes, ...) -- CPU_ReadMem(4 bytes @ 0x50000750) -- Data:  02 00 00 00  returns 0x00 (0000ms, 1576ms total)
T1158 003:266 JLINK_ReadMem (0x50000754, 0x0004 Bytes, ...) -- CPU_ReadMem(4 bytes @ 0x50000754) -- Data:  02 00 00 00  returns 0x00 (0001ms, 1577ms total)
T1158 003:267 JLINK_ReadMem (0x50000754, 0x0004 Bytes, ...) -- CPU_ReadMem(4 bytes @ 0x50000754) -- Data:  02 00 00 00  returns 0x00 (0001ms, 1578ms total)
T1158 003:268 JLINK_ReadMem (0x50000754, 0x0004 Bytes, ...) -- CPU_ReadMem(4 bytes @ 0x50000754) -- Data:  02 00 00 00  returns 0x00 (0000ms, 1578ms total)
T1158 003:268 JLINK_ReadMem (0x50000754, 0x0004 Bytes, ...) -- CPU_ReadMem(4 bytes @ 0x50000754) -- Data:  02 00 00 00  returns 0x00 (0001ms, 1579ms total)
T1158 003:269 JLINK_ReadMem (0x50000754, 0x0004 Bytes, ...) -- CPU_ReadMem(4 bytes @ 0x50000754) -- Data:  02 00 00 00  returns 0x00 (0000ms, 1579ms total)
T1158 003:269 JLINK_ReadMem (0x50000754, 0x0004 Bytes, ...) -- CPU_ReadMem(4 bytes @ 0x50000754) -- Data:  02 00 00 00  returns 0x00 (0001ms, 1580ms total)
T1158 003:270 JLINK_ReadMem (0x50000758, 0x0004 Bytes, ...) -- CPU_ReadMem(4 bytes @ 0x50000758) -- Data:  02 00 00 00  returns 0x00 (0001ms, 1581ms total)
T1158 003:271 JLINK_ReadMem (0x50000758, 0x0004 Bytes, ...) -- CPU_ReadMem(4 bytes @ 0x50000758) -- Data:  02 00 00 00  returns 0x00 (0000ms, 1581ms total)
T1158 003:271 JLINK_ReadMem (0x50000758, 0x0004 Bytes, ...) -- CPU_ReadMem(4 bytes @ 0x50000758) -- Data:  02 00 00 00  returns 0x00 (0001ms, 1582ms total)
T1158 003:272 JLINK_ReadMem (0x50000758, 0x0004 Bytes, ...) -- CPU_ReadMem(4 bytes @ 0x50000758) -- Data:  02 00 00 00  returns 0x00 (0001ms, 1583ms total)
T1158 003:273 JLINK_ReadMem (0x50000758, 0x0004 Bytes, ...) -- CPU_ReadMem(4 bytes @ 0x50000758) -- Data:  02 00 00 00  returns 0x00 (0000ms, 1583ms total)
T1158 003:273 JLINK_ReadMem (0x50000758, 0x0004 Bytes, ...) -- CPU_ReadMem(4 bytes @ 0x50000758) -- Data:  02 00 00 00  returns 0x00 (0001ms, 1584ms total)
T1158 003:274 JLINK_ReadMem (0x5000075C, 0x0004 Bytes, ...) -- CPU_ReadMem(4 bytes @ 0x5000075C) -- Data:  02 00 00 00  returns 0x00 (0000ms, 1584ms total)
T1158 003:274 JLINK_ReadMem (0x5000075C, 0x0004 Bytes, ...) -- CPU_ReadMem(4 bytes @ 0x5000075C) -- Data:  02 00 00 00  returns 0x00 (0001ms, 1585ms total)
T1158 003:275 JLINK_ReadMem (0x5000075C, 0x0004 Bytes, ...) -- CPU_ReadMem(4 bytes @ 0x5000075C) -- Data:  02 00 00 00  returns 0x00 (0001ms, 1586ms total)
T1158 003:276 JLINK_ReadMem (0x5000075C, 0x0004 Bytes, ...) -- CPU_ReadMem(4 bytes @ 0x5000075C) -- Data:  02 00 00 00  returns 0x00 (0000ms, 1586ms total)
T1158 003:276 JLINK_ReadMem (0x5000075C, 0x0004 Bytes, ...) -- CPU_ReadMem(4 bytes @ 0x5000075C) -- Data:  02 00 00 00  returns 0x00 (0001ms, 1587ms total)
T1158 003:277 JLINK_ReadMem (0x5000075C, 0x0004 Bytes, ...) -- CPU_ReadMem(4 bytes @ 0x5000075C) -- Data:  02 00 00 00  returns 0x00 (0001ms, 1588ms total)
T1158 003:278 JLINK_ReadMem (0x50000760, 0x0004 Bytes, ...) -- CPU_ReadMem(4 bytes @ 0x50000760) -- Data:  02 00 00 00  returns 0x00 (0000ms, 1588ms total)
T1158 003:278 JLINK_ReadMem (0x50000760, 0x0004 Bytes, ...) -- CPU_ReadMem(4 bytes @ 0x50000760) -- Data:  02 00 00 00  returns 0x00 (0001ms, 1589ms total)
T1158 003:279 JLINK_ReadMem (0x50000760, 0x0004 Bytes, ...) -- CPU_ReadMem(4 bytes @ 0x50000760) -- Data:  02 00 00 00  returns 0x00 (0000ms, 1589ms total)
T1158 003:279 JLINK_ReadMem (0x50000760, 0x0004 Bytes, ...) -- CPU_ReadMem(4 bytes @ 0x50000760) -- Data:  02 00 00 00  returns 0x00 (0001ms, 1590ms total)
T1158 003:280 JLINK_ReadMem (0x50000760, 0x0004 Bytes, ...) -- CPU_ReadMem(4 bytes @ 0x50000760) -- Data:  02 00 00 00  returns 0x00 (0001ms, 1591ms total)
T1158 003:281 JLINK_ReadMem (0x50000760, 0x0004 Bytes, ...) -- CPU_ReadMem(4 bytes @ 0x50000760) -- Data:  02 00 00 00  returns 0x00 (0000ms, 1591ms total)
T1158 003:281 JLINK_ReadMem (0x50000764, 0x0004 Bytes, ...) -- CPU_ReadMem(4 bytes @ 0x50000764) -- Data:  02 00 00 00  returns 0x00 (0001ms, 1592ms total)
T1158 003:282 JLINK_ReadMem (0x50000764, 0x0004 Bytes, ...) -- CPU_ReadMem(4 bytes @ 0x50000764) -- Data:  02 00 00 00  returns 0x00 (0001ms, 1593ms total)
T1158 003:283 JLINK_ReadMem (0x50000764, 0x0004 Bytes, ...) -- CPU_ReadMem(4 bytes @ 0x50000764) -- Data:  02 00 00 00  returns 0x00 (0000ms, 1593ms total)
T1158 003:283 JLINK_ReadMem (0x50000764, 0x0004 Bytes, ...) -- CPU_ReadMem(4 bytes @ 0x50000764) -- Data:  02 00 00 00  returns 0x00 (0001ms, 1594ms total)
T1158 003:284 JLINK_ReadMem (0x50000764, 0x0004 Bytes, ...) -- CPU_ReadMem(4 bytes @ 0x50000764) -- Data:  02 00 00 00  returns 0x00 (0000ms, 1594ms total)
T1158 003:284 JLINK_ReadMem (0x50000764, 0x0004 Bytes, ...) -- CPU_ReadMem(4 bytes @ 0x50000764) -- Data:  02 00 00 00  returns 0x00 (0001ms, 1595ms total)
T1158 003:285 JLINK_ReadMem (0x50000768, 0x0004 Bytes, ...) -- CPU_ReadMem(4 bytes @ 0x50000768) -- Data:  02 00 00 00  returns 0x00 (0001ms, 1596ms total)
T1158 003:286 JLINK_ReadMem (0x50000768, 0x0004 Bytes, ...) -- CPU_ReadMem(4 bytes @ 0x50000768) -- Data:  02 00 00 00  returns 0x00 (0000ms, 1596ms total)
T1158 003:286 JLINK_ReadMem (0x50000768, 0x0004 Bytes, ...) -- CPU_ReadMem(4 bytes @ 0x50000768) -- Data:  02 00 00 00  returns 0x00 (0001ms, 1597ms total)
T1158 003:287 JLINK_ReadMem (0x50000768, 0x0004 Bytes, ...) -- CPU_ReadMem(4 bytes @ 0x50000768) -- Data:  02 00 00 00  returns 0x00 (0000ms, 1597ms total)
T1158 003:287 JLINK_ReadMem (0x50000768, 0x0004 Bytes, ...) -- CPU_ReadMem(4 bytes @ 0x50000768) -- Data:  02 00 00 00  returns 0x00 (0001ms, 1598ms total)
T1158 003:288 JLINK_ReadMem (0x50000768, 0x0004 Bytes, ...) -- CPU_ReadMem(4 bytes @ 0x50000768) -- Data:  02 00 00 00  returns 0x00 (0001ms, 1599ms total)
T1158 003:289 JLINK_ReadMem (0x5000076C, 0x0004 Bytes, ...) -- CPU_ReadMem(4 bytes @ 0x5000076C) -- Data:  02 00 00 00  returns 0x00 (0000ms, 1599ms total)
T1158 003:289 JLINK_ReadMem (0x5000076C, 0x0004 Bytes, ...) -- CPU_ReadMem(4 bytes @ 0x5000076C) -- Data:  02 00 00 00  returns 0x00 (0001ms, 1600ms total)
T1158 003:290 JLINK_ReadMem (0x5000076C, 0x0004 Bytes, ...) -- CPU_ReadMem(4 bytes @ 0x5000076C) -- Data:  02 00 00 00  returns 0x00 (0001ms, 1601ms total)
T1158 003:291 JLINK_ReadMem (0x5000076C, 0x0004 Bytes, ...) -- CPU_ReadMem(4 bytes @ 0x5000076C) -- Data:  02 00 00 00  returns 0x00 (0000ms, 1601ms total)
T1158 003:291 JLINK_ReadMem (0x5000076C, 0x0004 Bytes, ...) -- CPU_ReadMem(4 bytes @ 0x5000076C) -- Data:  02 00 00 00  returns 0x00 (0001ms, 1602ms total)
T1158 003:292 JLINK_ReadMem (0x5000076C, 0x0004 Bytes, ...) -- CPU_ReadMem(4 bytes @ 0x5000076C) -- Data:  02 00 00 00  returns 0x00 (0000ms, 1602ms total)
T1158 003:292 JLINK_ReadMem (0x50000770, 0x0004 Bytes, ...) -- CPU_ReadMem(4 bytes @ 0x50000770) -- Data:  02 00 00 00  returns 0x00 (0001ms, 1603ms total)
T1158 003:293 JLINK_ReadMem (0x50000770, 0x0004 Bytes, ...) -- CPU_ReadMem(4 bytes @ 0x50000770) -- Data:  02 00 00 00  returns 0x00 (0001ms, 1604ms total)
T1158 003:294 JLINK_ReadMem (0x50000770, 0x0004 Bytes, ...) -- CPU_ReadMem(4 bytes @ 0x50000770) -- Data:  02 00 00 00  returns 0x00 (0000ms, 1604ms total)
T1158 003:294 JLINK_ReadMem (0x50000770, 0x0004 Bytes, ...) -- CPU_ReadMem(4 bytes @ 0x50000770) -- Data:  02 00 00 00  returns 0x00 (0001ms, 1605ms total)
T1158 003:295 JLINK_ReadMem (0x50000770, 0x0004 Bytes, ...) -- CPU_ReadMem(4 bytes @ 0x50000770) -- Data:  02 00 00 00  returns 0x00 (0001ms, 1606ms total)
T1158 003:296 JLINK_ReadMem (0x50000770, 0x0004 Bytes, ...) -- CPU_ReadMem(4 bytes @ 0x50000770) -- Data:  02 00 00 00  returns 0x00 (0000ms, 1606ms total)
T1158 003:296 JLINK_ReadMem (0x50000774, 0x0004 Bytes, ...) -- CPU_ReadMem(4 bytes @ 0x50000774) -- Data:  02 00 00 00  returns 0x00 (0001ms, 1607ms total)
T1158 003:297 JLINK_ReadMem (0x50000774, 0x0004 Bytes, ...) -- CPU_ReadMem(4 bytes @ 0x50000774) -- Data:  02 00 00 00  returns 0x00 (0000ms, 1607ms total)
T1158 003:297 JLINK_ReadMem (0x50000774, 0x0004 Bytes, ...) -- CPU_ReadMem(4 bytes @ 0x50000774) -- Data:  02 00 00 00  returns 0x00 (0001ms, 1608ms total)
T1158 003:298 JLINK_ReadMem (0x50000774, 0x0004 Bytes, ...) -- CPU_ReadMem(4 bytes @ 0x50000774) -- Data:  02 00 00 00  returns 0x00 (0001ms, 1609ms total)
T1158 003:299 JLINK_ReadMem (0x50000774, 0x0004 Bytes, ...) -- CPU_ReadMem(4 bytes @ 0x50000774) -- Data:  02 00 00 00  returns 0x00 (0000ms, 1609ms total)
T1158 003:299 JLINK_ReadMem (0x50000774, 0x0004 Bytes, ...) -- CPU_ReadMem(4 bytes @ 0x50000774) -- Data:  02 00 00 00  returns 0x00 (0001ms, 1610ms total)
T1158 003:300 JLINK_ReadMem (0x50000778, 0x0004 Bytes, ...) -- CPU_ReadMem(4 bytes @ 0x50000778) -- Data:  02 00 00 00  returns 0x00 (0001ms, 1611ms total)
T1158 003:301 JLINK_ReadMem (0x50000778, 0x0004 Bytes, ...) -- CPU_ReadMem(4 bytes @ 0x50000778) -- Data:  02 00 00 00  returns 0x00 (0000ms, 1611ms total)
T1158 003:301 JLINK_ReadMem (0x50000778, 0x0004 Bytes, ...) -- CPU_ReadMem(4 bytes @ 0x50000778) -- Data:  02 00 00 00  returns 0x00 (0001ms, 1612ms total)
T1158 003:302 JLINK_ReadMem (0x50000778, 0x0004 Bytes, ...) -- CPU_ReadMem(4 bytes @ 0x50000778) -- Data:  02 00 00 00  returns 0x00 (0000ms, 1612ms total)
T1158 003:302 JLINK_ReadMem (0x50000778, 0x0004 Bytes, ...) -- CPU_ReadMem(4 bytes @ 0x50000778) -- Data:  02 00 00 00  returns 0x00 (0001ms, 1613ms total)
T1158 003:303 JLINK_ReadMem (0x50000778, 0x0004 Bytes, ...) -- CPU_ReadMem(4 bytes @ 0x50000778) -- Data:  02 00 00 00  returns 0x00 (0001ms, 1614ms total)
T1158 003:304 JLINK_ReadMem (0x5000077C, 0x0004 Bytes, ...) -- CPU_ReadMem(4 bytes @ 0x5000077C) -- Data:  02 00 00 00  returns 0x00 (0000ms, 1614ms total)
T1158 003:304 JLINK_ReadMem (0x5000077C, 0x0004 Bytes, ...) -- CPU_ReadMem(4 bytes @ 0x5000077C) -- Data:  02 00 00 00  returns 0x00 (0001ms, 1615ms total)
T1158 003:305 JLINK_ReadMem (0x5000077C, 0x0004 Bytes, ...) -- CPU_ReadMem(4 bytes @ 0x5000077C) -- Data:  02 00 00 00  returns 0x00 (0001ms, 1616ms total)
T1158 003:306 JLINK_ReadMem (0x5000077C, 0x0004 Bytes, ...) -- CPU_ReadMem(4 bytes @ 0x5000077C) -- Data:  02 00 00 00  returns 0x00 (0000ms, 1616ms total)
T1158 003:306 JLINK_ReadMem (0x5000077C, 0x0004 Bytes, ...) -- CPU_ReadMem(4 bytes @ 0x5000077C) -- Data:  02 00 00 00  returns 0x00 (0001ms, 1617ms total)
T1158 003:307 JLINK_ReadMem (0x5000077C, 0x0004 Bytes, ...) -- CPU_ReadMem(4 bytes @ 0x5000077C) -- Data:  02 00 00 00  returns 0x00 (0000ms, 1617ms total)
T1158 003:592 JLINK_ReadMem (0x00000000, 0x0110 Bytes, ...) -- CPU_ReadMem(320 bytes @ 0x00000000) -- Updating C cache (320 bytes @ 0x00000000) -- Read from C cache (272 bytes @ 0x00000000) -- Data:  C0 07 00 00 D1 06 00 00 D1 00 00 00 B1 06 00 00 ...  returns 0x00 (0003ms, 1620ms total)
T33CC 004:018 JLINK_SetBPEx(Addr = 0x000163C4, Type = 0xFFFFFFF2)  returns 0x00000001 (0000ms, 1620ms total)
T33CC 004:018 JLINK_SetBPEx(Addr = 0x000162D2, Type = 0xFFFFFFF2)  returns 0x00000002 (0000ms, 1620ms total)
T33CC 004:018 JLINK_Go() -- CPU_WriteMem(4 bytes @ 0xE0002000) -- CPU_WriteMem(4 bytes @ 0xE0002000) -- CPU_WriteMem(4 bytes @ 0xE0002008) -- CPU_WriteMem(4 bytes @ 0xE000200C) -- CPU_WriteMem(4 bytes @ 0xE0002010) -- CPU_WriteMem(4 bytes @ 0xE0002014) -- CPU_WriteMem(4 bytes @ 0xE0001004) (0004ms, 1624ms total)
T33CC 004:122 JLINK_IsHalted()  returns TRUE (0003ms, 1627ms total)
T33CC 004:125 JLINK_Halt()  returns 0x00 (0000ms, 1624ms total)
T33CC 004:125 JLINK_IsHalted()  returns TRUE (0000ms, 1624ms total)
T33CC 004:125 JLINK_IsHalted()  returns TRUE (0000ms, 1624ms total)
T33CC 004:125 JLINK_IsHalted()  returns TRUE (0000ms, 1624ms total)
T33CC 004:125 JLINK_ReadReg(R15 (PC))  returns 0x000163C4 (0000ms, 1624ms total)
T33CC 004:125 JLINK_ReadReg(XPSR)  returns 0x21000000 (0000ms, 1624ms total)
T33CC 004:125 JLINK_ClrBPEx(BPHandle = 0x00000001)  returns 0x00 (0000ms, 1624ms total)
T33CC 004:125 JLINK_ClrBPEx(BPHandle = 0x00000002)  returns 0x00 (0000ms, 1624ms total)
T33CC 004:125 JLINK_ReadMemU32(0xE000ED30, 0x0001 Items, ...) -- CPU_ReadMem(4 bytes @ 0xE000ED30) -- Data:  03 00 00 00  returns 0x01 (0001ms, 1625ms total)
T33CC 004:126 JLINK_ReadMemU32(0xE0001028, 0x0001 Items, ...) -- CPU_ReadMem(4 bytes @ 0xE0001028) -- Data:  00 00 00 00  returns 0x01 (0001ms, 1626ms total)
T33CC 004:127 JLINK_ReadMemU32(0xE0001038, 0x0001 Items, ...) -- CPU_ReadMem(4 bytes @ 0xE0001038) -- Data:  00 00 00 00  returns 0x01 (0000ms, 1626ms total)
T33CC 004:127 JLINK_ReadReg(R0)  returns 0x200024F0 (0000ms, 1626ms total)
T33CC 004:127 JLINK_ReadReg(R1)  returns 0x20002CF0 (0000ms, 1626ms total)
T33CC 004:127 JLINK_ReadReg(R2)  returns 0x20002CF0 (0001ms, 1627ms total)
T33CC 004:128 JLINK_ReadReg(R3)  returns 0x20002CF0 (0000ms, 1627ms total)
T33CC 004:128 JLINK_ReadReg(R4)  returns 0x000196A4 (0000ms, 1627ms total)
T33CC 004:128 JLINK_ReadReg(R5)  returns 0x2000248C (0000ms, 1627ms total)
T33CC 004:128 JLINK_ReadReg(R6)  returns 0x00000000 (0000ms, 1627ms total)
T33CC 004:128 JLINK_ReadReg(R7)  returns 0x00000000 (0000ms, 1627ms total)
T33CC 004:128 JLINK_ReadReg(R8)  returns 0xFFFFFFFF (0000ms, 1627ms total)
T33CC 004:128 JLINK_ReadReg(R9)  returns 0xFFFFFFFF (0000ms, 1627ms total)
T33CC 004:128 JLINK_ReadReg(R10)  returns 0x000196A4 (0000ms, 1627ms total)
T33CC 004:128 JLINK_ReadReg(R11)  returns 0x000196A4 (0000ms, 1627ms total)
T33CC 004:128 JLINK_ReadReg(R12)  returns 0xFFFFFFFF (0000ms, 1627ms total)
T33CC 004:128 JLINK_ReadReg(R13 (SP))  returns 0x200034F0 (0000ms, 1627ms total)
T33CC 004:128 JLINK_ReadReg(R14)  returns 0x00016179 (0000ms, 1627ms total)
T33CC 004:128 JLINK_ReadReg(R15 (PC))  returns 0x000163C4 (0000ms, 1627ms total)
T33CC 004:128 JLINK_ReadReg(XPSR)  returns 0x21000000 (0000ms, 1627ms total)
T33CC 004:128 JLINK_ReadReg(MSP)  returns 0x200034F0 (0000ms, 1627ms total)
T33CC 004:128 JLINK_ReadReg(PSP)  returns 0xFFFFFFFC (0000ms, 1627ms total)
T33CC 004:128 JLINK_ReadReg(CFBP)  returns 0x00000000 (0000ms, 1627ms total)
T1158 004:129 JLINK_ReadMem (0x00000000, 0x0004 Bytes, ...) -- CPU_ReadMem(64 bytes @ 0x00000000) -- Updating C cache (64 bytes @ 0x00000000) -- Read from C cache (4 bytes @ 0x00000000) -- Data:  C0 07 00 00  returns 0x00 (0001ms, 1628ms total)
T1158 004:131 JLINK_ReadMem (0x50000504, 0x0018 Bytes, ...) -- CPU_ReadMem(24 bytes @ 0x50000504) -- Data:  00 00 00 00 00 00 00 00 00 00 00 00 00 00 00 00 ...  returns 0x00 (0001ms, 1629ms total)
T1158 004:132 JLINK_ReadMem (0x5000051C, 0x0004 Bytes, ...) -- CPU_ReadMem(4 bytes @ 0x5000051C) -- Data:  00 00 00 00  returns 0x00 (0001ms, 1630ms total)
T1158 004:133 JLINK_ReadMem (0x50000700, 0x007C Bytes, ...) -- CPU_ReadMem(124 bytes @ 0x50000700) -- Data:  02 00 00 00 02 00 00 00 02 00 00 00 02 00 00 00 ...  returns 0x00 (0001ms, 1631ms total)
T1158 004:134 JLINK_ReadMem (0x5000077C, 0x0004 Bytes, ...) -- CPU_ReadMem(4 bytes @ 0x5000077C) -- Data:  02 00 00 00  returns 0x00 (0001ms, 1632ms total)
T1158 004:139 JLINK_ReadMem (0x000163C2, 0x0002 Bytes, ...) -- Read from flash cache (2 bytes @ 0x000163C2) -- Data:  10 BD  returns 0x00 (0000ms, 1632ms total)
T1158 004:139 JLINK_ReadMem (0x000163C4, 0x003C Bytes, ...) -- Read from flash cache (60 bytes @ 0x000163C4) -- Data:  1C B5 01 20 0B 23 0A 22 09 21 00 90 08 20 02 F0 ...  returns 0x00 (0000ms, 1632ms total)
T1158 004:157 JLINK_ReadMem (0x0001645E, 0x0002 Bytes, ...) -- Read from flash cache (2 bytes @ 0x0001645E) -- Data:  FF F7  returns 0x00 (0001ms, 1633ms total)
T1158 004:158 JLINK_ReadMem (0x00016460, 0x003C Bytes, ...) -- Read from flash cache (60 bytes @ 0x00016460) -- Data:  95 FF 16 20 26 DF 00 F0 8A F8 00 E0 40 DF FD E7 ...  returns 0x00 (0000ms, 1633ms total)
T33CC 004:484 JLINK_SetBPEx(Addr = 0x000162D2, Type = 0xFFFFFFF2)  returns 0x00000003 (0000ms, 1633ms total)
T33CC 004:484 JLINK_Go() -- CPU_WriteMem(4 bytes @ 0xE0002000) -- CPU_WriteMem(4 bytes @ 0xE0002008) -- CPU_WriteMem(4 bytes @ 0xE000200C) (0003ms, 1636ms total)
T33CC 004:587 JLINK_IsHalted()  returns FALSE (0000ms, 1636ms total)
T33CC 004:688 JLINK_IsHalted()  returns FALSE (0000ms, 1636ms total)
T33CC 004:789 JLINK_IsHalted()  returns FALSE (0000ms, 1636ms total)
T33CC 004:890 JLINK_IsHalted()  returns FALSE (0000ms, 1636ms total)
T33CC 004:991 JLINK_IsHalted()  returns FALSE (0000ms, 1636ms total)
T33CC 005:091 JLINK_IsHalted()  returns FALSE (0001ms, 1637ms total)
T33CC 005:192 JLINK_IsHalted()  returns FALSE (0000ms, 1636ms total)
T33CC 005:292 JLINK_IsHalted()  returns FALSE (0000ms, 1636ms total)
T33CC 005:392 JLINK_IsHalted()  returns FALSE (0000ms, 1636ms total)
T33CC 005:492 JLINK_IsHalted()  returns FALSE (0000ms, 1636ms total)
T33CC 005:592 JLINK_IsHalted()  returns FALSE (0000ms, 1636ms total)
T33CC 005:692 JLINK_IsHalted()  returns FALSE (0000ms, 1636ms total)
T33CC 005:792 JLINK_IsHalted()  returns FALSE (0001ms, 1637ms total)
T33CC 005:893 JLINK_IsHalted()  returns FALSE (0000ms, 1636ms total)
T33CC 005:993 JLINK_IsHalted()  returns FALSE (0000ms, 1636ms total)
T33CC 006:093 JLINK_IsHalted()  returns FALSE (0000ms, 1636ms total)
T33CC 006:193 JLINK_IsHalted()  returns FALSE (0000ms, 1636ms total)
T33CC 006:293 JLINK_IsHalted()  returns FALSE (0000ms, 1636ms total)
T33CC 006:393 JLINK_IsHalted()  returns FALSE (0000ms, 1636ms total)
T33CC 006:493 JLINK_IsHalted()  returns FALSE (0000ms, 1636ms total)
T33CC 006:593 JLINK_IsHalted()  returns FALSE (0000ms, 1636ms total)
T33CC 006:693 JLINK_IsHalted()  returns FALSE (0000ms, 1636ms total)
T33CC 006:793 JLINK_IsHalted()  returns FALSE (0000ms, 1636ms total)
T33CC 006:893 JLINK_IsHalted()  returns FALSE (0000ms, 1636ms total)
T33CC 006:993 JLINK_IsHalted()  returns FALSE (0000ms, 1636ms total)
T33CC 007:093 JLINK_IsHalted()  returns FALSE (0000ms, 1636ms total)
T33CC 007:193 JLINK_IsHalted()  returns FALSE (0001ms, 1637ms total)
T33CC 007:294 JLINK_IsHalted()  returns FALSE (0000ms, 1636ms total)
T33CC 007:394 JLINK_IsHalted()  returns FALSE (0000ms, 1636ms total)
T33CC 007:494 JLINK_IsHalted()  returns FALSE (0000ms, 1636ms total)
T33CC 007:594 JLINK_IsHalted()  returns FALSE (0000ms, 1636ms total)
T33CC 007:694 JLINK_IsHalted()  returns FALSE (0000ms, 1636ms total)
T33CC 007:794 JLINK_IsHalted()  returns FALSE (0000ms, 1636ms total)
T33CC 007:894 JLINK_IsHalted()  returns FALSE (0000ms, 1636ms total)
T33CC 007:994 JLINK_IsHalted()  returns FALSE (0000ms, 1636ms total)
T33CC 008:094 JLINK_IsHalted()  returns FALSE (0000ms, 1636ms total)
T33CC 008:194 JLINK_IsHalted()  returns FALSE (0001ms, 1637ms total)
T33CC 008:295 JLINK_IsHalted()  returns FALSE (0000ms, 1636ms total)
T33CC 008:395 JLINK_IsHalted()  returns FALSE (0000ms, 1636ms total)
T33CC 008:495 JLINK_IsHalted()  returns FALSE (0000ms, 1636ms total)
T33CC 008:595 JLINK_IsHalted()  returns FALSE (0000ms, 1636ms total)
T33CC 008:695 JLINK_IsHalted()  returns FALSE (0000ms, 1636ms total)
T33CC 008:795 JLINK_IsHalted()  returns FALSE (0000ms, 1636ms total)
T33CC 008:895 JLINK_IsHalted()  returns FALSE (0000ms, 1636ms total)
T33CC 008:995 JLINK_IsHalted()  returns FALSE (0000ms, 1636ms total)
T33CC 009:095 JLINK_IsHalted()  returns FALSE (0000ms, 1636ms total)
T33CC 009:195 JLINK_IsHalted()  returns FALSE (0001ms, 1637ms total)
T33CC 009:296 JLINK_IsHalted()  returns FALSE (0000ms, 1636ms total)
T33CC 009:396 JLINK_IsHalted()  returns FALSE (0000ms, 1636ms total)
T33CC 009:496 JLINK_IsHalted()  returns FALSE (0000ms, 1636ms total)
T33CC 009:596 JLINK_IsHalted()  returns FALSE (0000ms, 1636ms total)
T33CC 009:696 JLINK_IsHalted()  returns FALSE (0000ms, 1636ms total)
T33CC 009:796 JLINK_IsHalted()  returns FALSE (0000ms, 1636ms total)
